
**** 11/26/05 17:53:31 *********** Evaluation PSpice (Nov 1999) **************

 ** Profile: "SCHEMATIC1-deney6"  [ C:\Documents and Settings\MR.ERAY\Desktop\EEM311- ELEKTRONIK 2\LABS\deney6\deney6-schematic1-dene


 ****     CIRCUIT DESCRIPTION


******************************************************************************




** Creating circuit file "deney6-schematic1-deney6.sim.cir" 
** WARNING: THIS AUTOMATICALLY GENERATED FILE MAY BE OVERWRITTEN BY SUBSEQUENT SIMULATIONS

*Libraries: 
* Local Libraries :
* From [PSPICE NETLIST] section of pspiceev.ini file:
.lib "C:\Documents and Settings\MR.ERAY\Desktop\EEM311- ELEKTRONIK 2\LABS\deney6\cd4007.lib" 
.lib "C:\Documents and Settings\MR.ERAY\Desktop\EEM311- ELEKTRONIK 2\LABS\deney5\cd4007.lib" 
.lib "C:\Documents and Settings\MR.ERAY\Desktop\EEM311- ELEKTRONIK 2\LABS\deney4\jfet.lib" 
.lib "C:\Documents and Settings\MR.ERAY\Desktop\EEM311- ELEKTRONIK 2\LABS\deney3\cd4007.lib" 
.lib "C:\Documents and Settings\MR.ERAY\Desktop\EEM311- ELEKTRONIK 2\LABS\deney1\deney1\EEM311.lib" 
.lib "nom.lib" 

*Analysis directives: 
.TRAN  0 6ms 0 10us 
.PROBE 
.INC "deney6-SCHEMATIC1.net" 


**** INCLUDING deney6-SCHEMATIC1.net ****
* source DENEY6
M_Q1         N00160 N00154 0 0 nnMOS           
M_Q3         N00009 N00009 N00032 N00032 ppmos           
M_Q2         N00160 N00009 N00032 N00032 ppmos           
V_VCC         N00032 0 15Vdc
R_RG         N00154 N00160  1meg  
V_Vin         N01669 0  
+SIN 0 25m 5k 0 0 0
M_Q4         N00009 N00009 0 0 nnMOS           
C_C1         N01669 N00154  10u  
C_C2         N00160 N01644  10u  
R_RL         0 N01644  100k  

**** RESUMING deney6-schematic1-deney6.sim.cir ****
.INC "deney6-SCHEMATIC1.als"



**** INCLUDING deney6-SCHEMATIC1.als ****
.ALIASES
M_Q1            Q1(d=N00160 g=N00154 s=0 s=0 )
M_Q3            Q3(d=N00009 g=N00009 s=N00032 s=N00032 )
M_Q2            Q2(d=N00160 g=N00009 s=N00032 s=N00032 )
V_VCC           VCC(+=N00032 -=0 )
R_RG            RG(1=N00154 2=N00160 )
V_Vin           Vin(+=N01669 -=0 )
M_Q4            Q4(d=N00009 g=N00009 s=0 s=0 )
C_C1            C1(1=N01669 2=N00154 )
C_C2            C2(1=N00160 2=N01644 )
R_RL            RL(1=0 2=N01644 )
.ENDALIASES

**** RESUMING deney6-schematic1-deney6.sim.cir ****
.END

**** 11/26/05 17:53:31 *********** Evaluation PSpice (Nov 1999) **************

 ** Profile: "SCHEMATIC1-deney6"  [ C:\Documents and Settings\MR.ERAY\Desktop\EEM311- ELEKTRONIK 2\LABS\deney6\deney6-schematic1-dene


 ****     MOSFET MODEL PARAMETERS


******************************************************************************




               nnMOS           ppmos           
               NMOS            PMOS            
       LEVEL    2               2            
           L  100.000000E-06  100.000000E-06 
           W  100.000000E-06  100.000000E-06 
         VTO    1.4            -1            
          KP  600.000000E-06  600.000000E-06 
       GAMMA    0               0            
         PHI     .6              .6          
      LAMBDA    5.000000E-03     .01         
          IS   10.000000E-15   10.000000E-15 
          JS    0               0            
          PB     .8              .8          
        PBSW     .8              .8          
          CJ    0               0            
        CJSW    0               0            
        CGSO    0               0            
        CGDO    0               0            
        CGBO    0               0            
         TOX  100.000000E-09  100.000000E-09 
          XJ    0               0            
       UCRIT   10.000000E+03   10.000000E+03 
      DIOMOD    1               1            
         VFB    0               0            
        LETA    0               0            
        WETA    0               0            
          U0    0               0            
        TEMP    0               0            
         VDD    0               0            
       XPART    0               0            


**** 11/26/05 17:53:31 *********** Evaluation PSpice (Nov 1999) **************

 ** Profile: "SCHEMATIC1-deney6"  [ C:\Documents and Settings\MR.ERAY\Desktop\EEM311- ELEKTRONIK 2\LABS\deney6\deney6-schematic1-dene


 ****     INITIAL TRANSIENT SOLUTION       TEMPERATURE =   27.000 DEG C


******************************************************************************



 NODE   VOLTAGE     NODE   VOLTAGE     NODE   VOLTAGE     NODE   VOLTAGE


(N00009)    7.7561 (N00032)   15.0000 (N00154)    7.7561 (N00160)    7.7561     

(N01644)    0.0000 (N01669)    0.0000 




    VOLTAGE SOURCE CURRENTS
    NAME         CURRENT

    V_VCC       -2.522E-02
    V_Vin        0.000E+00

    TOTAL POWER DISSIPATION   3.78E-01  WATTS



          JOB CONCLUDED

          TOTAL JOB TIME             .13
