
**** 10/21/08 03:37:34 ************** PSpice Lite (Mar 2000) *****************

 ** Profile: "SCHEMATIC1-transient simulation"  [ C:\Users\Bertan\Desktop\. 3\o.c-SCHEMATIC1-transient simulation.sim ] 


 ****     CIRCUIT DESCRIPTION


******************************************************************************




** Creating circuit file "o.c-SCHEMATIC1-transient simulation.sim.cir" 
** WARNING: THIS AUTOMATICALLY GENERATED FILE MAY BE OVERWRITTEN BY SUBSEQUENT SIMULATIONS

*Libraries: 
* Local Libraries :
.LIB "nom.lib" 
* From [PSPICE NETLIST] section of C:\Program Files\OrcadLite\PSpice\PSpice.ini file:
.lib "D:\DERSLER\5.YARIYIL\EEM 311 LAB\deney 3\deney3\cd4007.lib" 
.lib "nom.lib" 

*Analysis directives: 
.TRAN  0 20ms  0 
.PROBE V(*) I(*) W(*) D(*) NOISE(*) 
.INC ".\o.c-SCHEMATIC1.net" 



**** INCLUDING o.c-SCHEMATIC1.net ****
* source O.C
M_M1         N00915 N00184 N04425 N04425 nnMOS           
C_C6         0 N04425  10uF  
R_R1         N00184 N00425  68k  
C_Cd         N00915 0  1uF  
R_R2         0 N00184  20k  
R_Rs         0 N04425  20k  
C_Cg         N02949 N00184  1uF  
R_Rd         N00915 N00425  178k  
V_V4         N02949 0  
+SIN 0 50mV 1kHz 0 0 0
V_V1         N00425 0 15Vdc

**** RESUMING "o.c-SCHEMATIC1-transient simulation.sim.cir" ****
.END

**** 10/21/08 03:37:34 ************** PSpice Lite (Mar 2000) *****************

 ** Profile: "SCHEMATIC1-transient simulation"  [ C:\Users\Bertan\Desktop\. 3\o.c-SCHEMATIC1-transient simulation.sim ] 


 ****     MOSFET MODEL PARAMETERS


******************************************************************************




               nnMOS           
               NMOS            
       LEVEL    2            
           L  100.000000E-06 
           W  100.000000E-06 
         VTO    1.4          
          KP  600.000000E-06 
       GAMMA    0            
         PHI     .6          
      LAMBDA    5.000000E-03 
          IS   10.000000E-15 
          JS    0            
          PB     .8          
        PBSW     .8          
          CJ    0            
        CJSW    0            
        CGSO    0            
        CGDO    0            
        CGBO    0            
         TOX  100.000000E-09 
          XJ    0            
       UCRIT   10.000000E+03 
      DIOMOD    1            
         VFB    0            
        LETA    0            
        WETA    0            
          U0    0            
        TEMP    0            
         VDD    0            
       XPART    0            


**** 10/21/08 03:37:34 ************** PSpice Lite (Mar 2000) *****************

 ** Profile: "SCHEMATIC1-transient simulation"  [ C:\Users\Bertan\Desktop\. 3\o.c-SCHEMATIC1-transient simulation.sim ] 


 ****     INITIAL TRANSIENT SOLUTION       TEMPERATURE =   27.000 DEG C


******************************************************************************



 NODE   VOLTAGE     NODE   VOLTAGE     NODE   VOLTAGE     NODE   VOLTAGE


(N00184)    3.4091 (N00425)   15.0000 (N00915)    1.8262 (N02949)    0.0000     

(N04425)    1.4802 




    VOLTAGE SOURCE CURRENTS
    NAME         CURRENT

    V_V4         0.000E+00
    V_V1        -2.445E-04

    TOTAL POWER DISSIPATION   3.67E-03  WATTS



          JOB CONCLUDED

          TOTAL JOB TIME             .02
