
**** 11/24/08 21:23:58 ************** PSpice Lite (Mar 2000) *****************

 ** Profile: "SCHEMATIC1-sim1"  [ C:\Documents and Settings\LuCiFeR\Desktop\deney6 pspice\aaaaaaa-schematic1-sim1.sim ] 


 ****     CIRCUIT DESCRIPTION


******************************************************************************




** Creating circuit file "aaaaaaa-schematic1-sim1.sim.cir" 
** WARNING: THIS AUTOMATICALLY GENERATED FILE MAY BE OVERWRITTEN BY SUBSEQUENT SIMULATIONS

*Libraries: 
* Local Libraries :
* From [PSPICE NETLIST] section of C:\Program Files\OrcadLite\PSpice\PSpice.ini file:
.lib "C:\Documents and Settings\LuCiFeR\Desktop\deney6\cd4007.lib" 
.lib "nom.lib" 

*Analysis directives: 
.TRAN  0 3ms 0 1uF 
.PROBE V(*) I(*) W(*) D(*) NOISE(*) 
.INC ".\aaaaaaa-SCHEMATIC1.net" 



**** INCLUDING aaaaaaa-SCHEMATIC1.net ****
* source AAAAAAA
M_Q2         N00525 N00195 N00226 N00226 ppmos           
M_Q3         N00195 N00195 N00226 N00226 ppmos           
V_Vcc         N00226 0 15Vdc
R_RL         0 N06290  100k  
V_V1         N06063 0  
+SIN 0 25mV 5kHz 0 0 0
R_Rg         N00719 N00525  1MEG  
M_Q1         N00525 N00719 0 0 nnMOS           
M_Q4         N00195 N00195 0 0 nnMOS           
C_C2         N00525 N06290  10uF  
C_C1         N06063 N00719  10uF  

**** RESUMING aaaaaaa-schematic1-sim1.sim.cir ****
.END

**** 11/24/08 21:23:58 ************** PSpice Lite (Mar 2000) *****************

 ** Profile: "SCHEMATIC1-sim1"  [ C:\Documents and Settings\LuCiFeR\Desktop\deney6 pspice\aaaaaaa-schematic1-sim1.sim ] 


 ****     MOSFET MODEL PARAMETERS


******************************************************************************




               ppmos           nnMOS           
               PMOS            NMOS            
       LEVEL    2               2            
           L  100.000000E-06  100.000000E-06 
           W  100.000000E-06  100.000000E-06 
         VTO   -1               1.4          
          KP  600.000000E-06  600.000000E-06 
       GAMMA    0               0            
         PHI     .6              .6          
      LAMBDA     .01            5.000000E-03 
          IS   10.000000E-15   10.000000E-15 
          JS    0               0            
          PB     .8              .8          
        PBSW     .8              .8          
          CJ    0               0            
        CJSW    0               0            
        CGSO    0               0            
        CGDO    0               0            
        CGBO    0               0            
         TOX  100.000000E-09  100.000000E-09 
          XJ    0               0            
       UCRIT   10.000000E+03   10.000000E+03 
      DIOMOD    1               1            
         VFB    0               0            
        LETA    0               0            
        WETA    0               0            
          U0    0               0            
        TEMP    0               0            
         VDD    0               0            
       XPART    0               0            


**** 11/24/08 21:23:58 ************** PSpice Lite (Mar 2000) *****************

 ** Profile: "SCHEMATIC1-sim1"  [ C:\Documents and Settings\LuCiFeR\Desktop\deney6 pspice\aaaaaaa-schematic1-sim1.sim ] 


 ****     INITIAL TRANSIENT SOLUTION       TEMPERATURE =   27.000 DEG C


******************************************************************************



 NODE   VOLTAGE     NODE   VOLTAGE     NODE   VOLTAGE     NODE   VOLTAGE


(N00195)    7.7561 (N00226)   15.0000 (N00525)    7.7561 (N00719)    7.7561     

(N06063)    0.0000 (N06290)    0.0000 




    VOLTAGE SOURCE CURRENTS
    NAME         CURRENT

    V_Vcc       -2.522E-02
    V_V1         0.000E+00

    TOTAL POWER DISSIPATION   3.78E-01  WATTS



          JOB CONCLUDED

          TOTAL JOB TIME             .31
