
**** 12/15/08 19:44:51 ************** PSpice Lite (Mar 2000) *****************

 ** Profile: "SCHEMATIC1-bias"  [ C:\Users\Bertan\Desktop\n alma 8\dc analiz-schematic1-bias.sim ] 


 ****     CIRCUIT DESCRIPTION


******************************************************************************




** Creating circuit file "dc analiz-schematic1-bias.sim.cir" 
** WARNING: THIS AUTOMATICALLY GENERATED FILE MAY BE OVERWRITTEN BY SUBSEQUENT SIMULATIONS

*Libraries: 
* Local Libraries :
* From [PSPICE NETLIST] section of C:\Windows\pspice.ini file:
.lib "C:\Program Files\OrcadLite\Capture\Library\PSpice\eval.lib" 
.lib "D:\DERSLER\5.YARIYIL\EEM 311 LAB Elektronik II\deney 4\deney4\jfet.lib" 
.lib "D:\DERSLER\5.YARIYIL\EEM 311 LAB Elektronik II\deney 3\deney3\cd4007.lib" 

*Analysis directives: 
.PROBE V(*) I(*) W(*) D(*) NOISE(*) 
.INC ".\dc analiz-SCHEMATIC1.net" 



**** INCLUDING "dc analiz-SCHEMATIC1.net" ****
* source DC ANALIZ
R_R1         N00224 N00274  8.2k  
R_Rc         N00195 N00274  6.3k  
R_R2         0 N00224  3.9k  
R_RE         0 N03652  3.3k  
Q_Q1         N00195 N00224 N03652 Q2N3904
V_Vcc         N00274 0 12Vdc

**** RESUMING "dc analiz-schematic1-bias.sim.cir" ****
.END

**** 12/15/08 19:44:51 ************** PSpice Lite (Mar 2000) *****************

 ** Profile: "SCHEMATIC1-bias"  [ C:\Users\Bertan\Desktop\n alma 8\dc analiz-schematic1-bias.sim ] 


 ****     BJT MODEL PARAMETERS


******************************************************************************




               Q2N3904         
               NPN             
          IS    6.734000E-15 
          BF  416.4          
          NF    1            
         VAF   74.03         
         IKF     .06678      
         ISE    6.734000E-15 
          NE    1.259        
          BR     .7371       
          NR    1            
          RB   10            
          RC    1            
         CJE    4.493000E-12 
         MJE     .2593       
         CJC    3.638000E-12 
         MJC     .3085       
          TF  301.200000E-12 
         XTF    2            
         VTF    4            
         ITF     .4          
          TR  239.500000E-09 
         XTB    1.5          
          CN    2.42         
           D     .87         


**** 12/15/08 19:44:51 ************** PSpice Lite (Mar 2000) *****************

 ** Profile: "SCHEMATIC1-bias"  [ C:\Users\Bertan\Desktop\n alma 8\dc analiz-schematic1-bias.sim ] 


 ****     SMALL SIGNAL BIAS SOLUTION       TEMPERATURE =   27.000 DEG C


******************************************************************************



 NODE   VOLTAGE     NODE   VOLTAGE     NODE   VOLTAGE     NODE   VOLTAGE


(N00195)    5.9639 (N00224)    3.8491 (N00274)   12.0000 (N03652)    3.1851 




    VOLTAGE SOURCE CURRENTS
    NAME         CURRENT

    V_Vcc       -1.952E-03

    TOTAL POWER DISSIPATION   2.34E-02  WATTS



          JOB CONCLUDED

          TOTAL JOB TIME            0.00
