
**** 12/15/08 21:37:01 ************** PSpice Lite (Mar 2000) *****************

 ** Profile: "SCHEMATIC1-time domain"  [ C:\Users\Bertan\Desktop\n alma 8\oncalisma8-SCHEMATIC1-time domain.sim ] 


 ****     CIRCUIT DESCRIPTION


******************************************************************************




** Creating circuit file "oncalisma8-SCHEMATIC1-time domain.sim.cir" 
** WARNING: THIS AUTOMATICALLY GENERATED FILE MAY BE OVERWRITTEN BY SUBSEQUENT SIMULATIONS

*Libraries: 
* Local Libraries :
* From [PSPICE NETLIST] section of C:\Windows\pspice.ini file:
.lib "C:\Program Files\OrcadLite\Capture\Library\PSpice\eval.lib" 
.lib "D:\DERSLER\5.YARIYIL\EEM 311 LAB Elektronik II\deney 4\deney4\jfet.lib" 
.lib "D:\DERSLER\5.YARIYIL\EEM 311 LAB Elektronik II\deney 3\deney3\cd4007.lib" 

*Analysis directives: 
.TRAN  0 5ms 0 
.PROBE V(*) I(*) W(*) D(*) NOISE(*) 
.INC ".\oncalisma8-SCHEMATIC1.net" 



**** INCLUDING oncalisma8-SCHEMATIC1.net ****
* source ONCALISMA8
R_R1         N00224 N00274  8.2k  
R_Rc         N00195 N00274  6.3k  
C_C3         N00195 N01531  10uF  
R_R2         0 N00224  3.9k  
R_RE         0 N00763  3.3k  
C_C1         N01728 N00224  10uF  
R_RL         0 N01531  3.9k  
V_V2         N001471 0  
+SIN 0 10mV 1kHz 0 0 0
R_Rs         N001471 N01728  3k  
C_CE         0 N00763  10uF  
Q_Q1         N00195 N00224 N00763 Q2N3904
V_Vcc         N00274 0 12Vdc

**** RESUMING "oncalisma8-SCHEMATIC1-time domain.sim.cir" ****
.END

**** 12/15/08 21:37:01 ************** PSpice Lite (Mar 2000) *****************

 ** Profile: "SCHEMATIC1-time domain"  [ C:\Users\Bertan\Desktop\n alma 8\oncalisma8-SCHEMATIC1-time domain.sim ] 


 ****     BJT MODEL PARAMETERS


******************************************************************************




               Q2N3904         
               NPN             
          IS    6.734000E-15 
          BF  416.4          
          NF    1            
         VAF   74.03         
         IKF     .06678      
         ISE    6.734000E-15 
          NE    1.259        
          BR     .7371       
          NR    1            
          RB   10            
          RC    1            
         CJE    4.493000E-12 
         MJE     .2593       
         CJC    3.638000E-12 
         MJC     .3085       
          TF  301.200000E-12 
         XTF    2            
         VTF    4            
         ITF     .4          
          TR  239.500000E-09 
         XTB    1.5          
          CN    2.42         
           D     .87         


**** 12/15/08 21:37:01 ************** PSpice Lite (Mar 2000) *****************

 ** Profile: "SCHEMATIC1-time domain"  [ C:\Users\Bertan\Desktop\n alma 8\oncalisma8-SCHEMATIC1-time domain.sim ] 


 ****     INITIAL TRANSIENT SOLUTION       TEMPERATURE =   27.000 DEG C


******************************************************************************



 NODE   VOLTAGE     NODE   VOLTAGE     NODE   VOLTAGE     NODE   VOLTAGE


(N00195)    5.9639 (N00224)    3.8491 (N00274)   12.0000 (N00763)    3.1851     

(N01531)    0.0000 (N01728)    0.0000 (N001471)    0.0000                   




    VOLTAGE SOURCE CURRENTS
    NAME         CURRENT

    V_V2         0.000E+00
    V_Vcc       -1.952E-03

    TOTAL POWER DISSIPATION   2.34E-02  WATTS



          JOB CONCLUDED

          TOTAL JOB TIME             .02
