
**** 10/27/08 21:37:46 ************** PSpice Lite (Mar 2000) *****************

 ** Profile: "SCHEMATIC1-bias"  [ C:\Users\Bertan\Desktop\o.c\bias-SCHEMATIC1-bias.sim ] 


 ****     CIRCUIT DESCRIPTION


******************************************************************************




** Creating circuit file "bias-SCHEMATIC1-bias.sim.cir" 
** WARNING: THIS AUTOMATICALLY GENERATED FILE MAY BE OVERWRITTEN BY SUBSEQUENT SIMULATIONS

*Libraries: 
* Local Libraries :
* From [PSPICE NETLIST] section of C:\Program Files\OrcadLite\PSpice\PSpice.ini file:
.lib "D:\DERSLER\5.YARIYIL\EEM 311 LAB\deney 4\deney4\jfet.lib" 
.lib "D:\DERSLER\5.YARIYIL\EEM 311 LAB\deney 3\deney3\cd4007.lib" 
.lib "nom.lib" 

*Analysis directives: 
.PROBE V(*) I(*) W(*) D(*) NOISE(*) 
.INC ".\bias-SCHEMATIC1.net" 



**** INCLUDING bias-SCHEMATIC1.net ****
* source BIAS
J_J1         N00660 N00976 N00588 J2N4860 
R_Rd         N00660 N01068  1k  
R_R1         N01145 N01068  30k  
R_Rc         N000731 N01068  1k  
R_Re         0 N04074  2.2k  
Q_Q1         N000731 N01145 N04074 Q2N3904
R_R2         0 N01145  47k  
R_Rs         0 N00588  330  
V_V1         N01068 0 12Vdc
R_Rg         0 N00976  1M  

**** RESUMING bias-SCHEMATIC1-bias.sim.cir ****
.END

**** 10/27/08 21:37:46 ************** PSpice Lite (Mar 2000) *****************

 ** Profile: "SCHEMATIC1-bias"  [ C:\Users\Bertan\Desktop\o.c\bias-SCHEMATIC1-bias.sim ] 


 ****     BJT MODEL PARAMETERS


******************************************************************************




               Q2N3904         
               NPN             
          IS    6.734000E-15 
          BF  416.4          
          NF    1            
         VAF   74.03         
         IKF     .06678      
         ISE    6.734000E-15 
          NE    1.259        
          BR     .7371       
          NR    1            
          RB   10            
          RC    1            
         CJE    4.493000E-12 
         MJE     .2593       
         CJC    3.638000E-12 
         MJC     .3085       
          TF  301.200000E-12 
         XTF    2            
         VTF    4            
         ITF     .4          
          TR  239.500000E-09 
         XTB    1.5          
          CN    2.42         
           D     .87         


**** 10/27/08 21:37:46 ************** PSpice Lite (Mar 2000) *****************

 ** Profile: "SCHEMATIC1-bias"  [ C:\Users\Bertan\Desktop\o.c\bias-SCHEMATIC1-bias.sim ] 


 ****     Junction FET MODEL PARAMETERS


******************************************************************************




               J2N4860         
               NJF             
         VTO   -2.998        
        BETA    6.313000E-03 
      LAMBDA     .01         
          IS  205.200000E-15 
         ISR    1.988000E-12 
       ALPHA   20.980000E-06 
          VK  123.7          
          RD    1            
          RS    1            
         CGD   15.920000E-12 
         CGS   14.160000E-12 
           M     .4069       
       VTOTC   -2.500000E-03 
     BETATCE    -.5          
          KF   84.470000E-18 


**** 10/27/08 21:37:46 ************** PSpice Lite (Mar 2000) *****************

 ** Profile: "SCHEMATIC1-bias"  [ C:\Users\Bertan\Desktop\o.c\bias-SCHEMATIC1-bias.sim ] 


 ****     SMALL SIGNAL BIAS SOLUTION       TEMPERATURE =   27.000 DEG C


******************************************************************************



 NODE   VOLTAGE     NODE   VOLTAGE     NODE   VOLTAGE     NODE   VOLTAGE


(N00588)    2.0244 (N00660)    5.8653 (N00976) 7.884E-15 (N01068)   12.0000     

(N01145)    6.9851 (N04074)    6.2923 (N000731)    9.1584                   




    VOLTAGE SOURCE CURRENTS
    NAME         CURRENT

    V_V1        -9.143E-03

    TOTAL POWER DISSIPATION   1.10E-01  WATTS



          JOB CONCLUDED

          TOTAL JOB TIME             .03
