
**** 10/28/08 01:22:07 ************** PSpice Lite (Mar 2000) *****************

 ** Profile: "SCHEMATIC1-transient"  [ C:\Users\Bertan\Desktop\o.c\o.c.4-schematic1-transient.sim ] 


 ****     CIRCUIT DESCRIPTION


******************************************************************************




** Creating circuit file "o.c.4-schematic1-transient.sim.cir" 
** WARNING: THIS AUTOMATICALLY GENERATED FILE MAY BE OVERWRITTEN BY SUBSEQUENT SIMULATIONS

*Libraries: 
* Local Libraries :
* From [PSPICE NETLIST] section of C:\Program Files\OrcadLite\PSpice\PSpice.ini file:
.lib "D:\DERSLER\5.YARIYIL\EEM 311 LAB\deney 4\deney4\jfet.lib" 
.lib "D:\DERSLER\5.YARIYIL\EEM 311 LAB\deney 4\deney4\jfet.lib" 
.lib "D:\DERSLER\5.YARIYIL\EEM 311 LAB\deney 3\deney3\cd4007.lib" 
.lib "nom.lib" 

*Analysis directives: 
.TRAN  0 10ms 0 
.PROBE V(*) I(*) W(*) D(*) NOISE(*) 
.INC ".\o.c.4-SCHEMATIC1.net" 



**** INCLUDING o.c.4-SCHEMATIC1.net ****
* source O.C.4
C_C4         0 N01339  100uF  
J_J1         N03204 N00947 N00588 J2N4860 
C_C5         N01274 N01399  10uF  
R_Rd         N03204 N01068  1k  
R_R1         N01131 N01068  30k  
R_Rc         N01274 N01068  1k  
R_RL         0 N01399  100k  
Q_Q1         N01274 N01131 N01339 Q2N3904
R_R2         0 N01131  47k  
R_Rs         0 N00588  330  
V_V2         N00909 0  
+SIN 0 0.1mV 1kHz 0 0 0
V_V1         N01068 0 12Vdc
R_Rg         0 N00947  1M  
C_C1         N00909 N00947  10uF  
R_Re         0 N01339  2.2k  
C_C3         N03204 N01131  100uF  
C_C2         0 N00588  22uF  

**** RESUMING o.c.4-schematic1-transient.sim.cir ****
.END

**** 10/28/08 01:22:07 ************** PSpice Lite (Mar 2000) *****************

 ** Profile: "SCHEMATIC1-transient"  [ C:\Users\Bertan\Desktop\o.c\o.c.4-schematic1-transient.sim ] 


 ****     BJT MODEL PARAMETERS


******************************************************************************




               Q2N3904         
               NPN             
          IS    6.734000E-15 
          BF  416.4          
          NF    1            
         VAF   74.03         
         IKF     .06678      
         ISE    6.734000E-15 
          NE    1.259        
          BR     .7371       
          NR    1            
          RB   10            
          RC    1            
         CJE    4.493000E-12 
         MJE     .2593       
         CJC    3.638000E-12 
         MJC     .3085       
          TF  301.200000E-12 
         XTF    2            
         VTF    4            
         ITF     .4          
          TR  239.500000E-09 
         XTB    1.5          
          CN    2.42         
           D     .87         


**** 10/28/08 01:22:07 ************** PSpice Lite (Mar 2000) *****************

 ** Profile: "SCHEMATIC1-transient"  [ C:\Users\Bertan\Desktop\o.c\o.c.4-schematic1-transient.sim ] 


 ****     Junction FET MODEL PARAMETERS


******************************************************************************




               J2N4860         
               NJF             
         VTO   -2.998        
        BETA    6.313000E-03 
      LAMBDA     .01         
          IS  205.200000E-15 
         ISR    1.988000E-12 
       ALPHA   20.980000E-06 
          VK  123.7          
          RD    1            
          RS    1            
         CGD   15.920000E-12 
         CGS   14.160000E-12 
           M     .4069       
       VTOTC   -2.500000E-03 
     BETATCE    -.5          
          KF   84.470000E-18 


**** 10/28/08 01:22:07 ************** PSpice Lite (Mar 2000) *****************

 ** Profile: "SCHEMATIC1-transient"  [ C:\Users\Bertan\Desktop\o.c\o.c.4-schematic1-transient.sim ] 


 ****     INITIAL TRANSIENT SOLUTION       TEMPERATURE =   27.000 DEG C


******************************************************************************



 NODE   VOLTAGE     NODE   VOLTAGE     NODE   VOLTAGE     NODE   VOLTAGE


(N00588)    2.0244 (N00909)    0.0000 (N00947) 7.884E-15 (N01068)   12.0000     

(N01131)    6.9851 (N01274)    9.1584 (N01339)    6.2923 (N01399)    0.0000     

(N03204)    5.8653 




    VOLTAGE SOURCE CURRENTS
    NAME         CURRENT

    V_V2         0.000E+00
    V_V1        -9.143E-03

    TOTAL POWER DISSIPATION   1.10E-01  WATTS



          JOB CONCLUDED

          TOTAL JOB TIME             .02
